Freq.	V(n002)
1.00000000000000e-01	(-4.05047891866951e+00dB,-1.09453025658628e+02Ḟ)
1.00057581198936e-01	(-4.04603353850329e+00dB,-1.09463385622286e+02Ḟ)
1.00115195553817e-01	(-4.04158872629286e+00dB,-1.09473750227249e+02Ḟ)
1.00172843083734e-01	(-4.03714448254711e+00dB,-1.09484119474241e+02Ḟ)
1.00230523807790e-01	(-4.03270080777525e+00dB,-1.09494493363983e+02Ḟ)
1.00288237745098e-01	(-4.02825770248680e+00dB,-1.09504871897193e+02Ḟ)
1.00345984914784e-01	(-4.02381516719157e+00dB,-1.09515255074588e+02Ḟ)
1.00403765335982e-01	(-4.01937320239969e+00dB,-1.09525642896883e+02Ḟ)
1.00461579027839e-01	(-4.01493180862160e+00dB,-1.09536035364789e+02Ḟ)
1.00519426009514e-01	(-4.01049098636804e+00dB,-1.09546432479018e+02Ḟ)
1.00577306300174e-01	(-4.00605073615004e+00dB,-1.09556834240277e+02Ḟ)
1.00635219918999e-01	(-4.00161105847898e+00dB,-1.09567240649273e+02Ḟ)
1.00693166885180e-01	(-3.99717195386649e+00dB,-1.09577651706710e+02Ḟ)
1.00751147217920e-01	(-3.99273342282456e+00dB,-1.09588067413288e+02Ḟ)
1.00809160936430e-01	(-3.98829546586544e+00dB,-1.09598487769709e+02Ḟ)
1.00867208059934e-01	(-3.98385808350172e+00dB,-1.09608912776669e+02Ḟ)
1.00925288607668e-01	(-3.97942127624627e+00dB,-1.09619342434863e+02Ḟ)
1.00983402598878e-01	(-3.97498504461228e+00dB,-1.09629776744985e+02Ḟ)
1.01041550052821e-01	(-3.97054938911326e+00dB,-1.09640215707727e+02Ḟ)
1.01099730988765e-01	(-3.96611431026298e+00dB,-1.09650659323776e+02Ḟ)
1.01157945425990e-01	(-3.96167980857555e+00dB,-1.09661107593820e+02Ḟ)
1.01216193383785e-01	(-3.95724588456539e+00dB,-1.09671560518542e+02Ḟ)
1.01274474881453e-01	(-3.95281253874719e+00dB,-1.09682018098626e+02Ḟ)
1.01332789938306e-01	(-3.94837977163598e+00dB,-1.09692480334752e+02Ḟ)
1.01391138573668e-01	(-3.94394758374709e+00dB,-1.09702947227597e+02Ḟ)
1.01449520806874e-01	(-3.93951597559612e+00dB,-1.09713418777838e+02Ḟ)
1.01507936657269e-01	(-3.93508494769901e+00dB,-1.09723894986148e+02Ḟ)
1.01566386144212e-01	(-3.93065450057199e+00dB,-1.09734375853198e+02Ḟ)
1.01624869287069e-01	(-3.92622463473161e+00dB,-1.09744861379658e+02Ḟ)
1.01683386105222e-01	(-3.92179535069470e+00dB,-1.09755351566195e+02Ḟ)
1.01741936618060e-01	(-3.91736664897839e+00dB,-1.09765846413474e+02Ḟ)
1.01800520844986e-01	(-3.91293853010015e+00dB,-1.09776345922157e+02Ḟ)
1.01859138805412e-01	(-3.90851099457772e+00dB,-1.09786850092905e+02Ḟ)
1.01917790518762e-01	(-3.90408404292914e+00dB,-1.09797358926376e+02Ḟ)
1.01976476004472e-01	(-3.89965767567279e+00dB,-1.09807872423226e+02Ḟ)
1.02035195281988e-01	(-3.89523189332732e+00dB,-1.09818390584109e+02Ḟ)
1.02093948370768e-01	(-3.89080669641169e+00dB,-1.09828913409677e+02Ḟ)
1.02152735290281e-01	(-3.88638208544516e+00dB,-1.09839440900578e+02Ḟ)
1.02211556060007e-01	(-3.88195806094730e+00dB,-1.09849973057460e+02Ḟ)
1.02270410699438e-01	(-3.87753462343798e+00dB,-1.09860509880969e+02Ḟ)
1.02329299228075e-01	(-3.87311177343737e+00dB,-1.09871051371746e+02Ḟ)
1.02388221665434e-01	(-3.86868951146593e+00dB,-1.09881597530432e+02Ḟ)
1.02447178031038e-01	(-3.86426783804446e+00dB,-1.09892148357665e+02Ḟ)
1.02506168344424e-01	(-3.85984675369402e+00dB,-1.09902703854081e+02Ḟ)
1.02565192625141e-01	(-3.85542625893598e+00dB,-1.09913264020313e+02Ḟ)
1.02624250892745e-01	(-3.85100635429202e+00dB,-1.09923828856994e+02Ḟ)
1.02683343166808e-01	(-3.84658704028414e+00dB,-1.09934398364753e+02Ḟ)
1.02742469466912e-01	(-3.84216831743460e+00dB,-1.09944972544215e+02Ḟ)
1.02801629812647e-01	(-3.83775018626599e+00dB,-1.09955551396007e+02Ḟ)
1.02860824223619e-01	(-3.83333264730119e+00dB,-1.09966134920749e+02Ḟ)
1.02920052719443e-01	(-3.82891570106338e+00dB,-1.09976723119063e+02Ḟ)
1.02979315319744e-01	(-3.82449934807603e+00dB,-1.09987315991566e+02Ḟ)
1.03038612044161e-01	(-3.82008358886294e+00dB,-1.09997913538874e+02Ḟ)
1.03097942912344e-01	(-3.81566842394820e+00dB,-1.10008515761600e+02Ḟ)
1.03157307943951e-01	(-3.81125385385618e+00dB,-1.10019122660354e+02Ḟ)
1.03216707158655e-01	(-3.80683987911155e+00dB,-1.10029734235746e+02Ḟ)
1.03276140576140e-01	(-3.80242650023931e+00dB,-1.10040350488382e+02Ḟ)
1.03335608216098e-01	(-3.79801371776473e+00dB,-1.10050971418866e+02Ḟ)
1.03395110098237e-01	(-3.79360153221339e+00dB,-1.10061597027800e+02Ḟ)
1.03454646242273e-01	(-3.78918994411117e+00dB,-1.10072227315783e+02Ḟ)
1.03514216667934e-01	(-3.78477895398426e+00dB,-1.10082862283412e+02Ḟ)
1.03573821394961e-01	(-3.78036856235911e+00dB,-1.10093501931282e+02Ḟ)
1.03633460443104e-01	(-3.77595876976252e+00dB,-1.10104146259986e+02Ḟ)
1.03693133832126e-01	(-3.77154957672155e+00dB,-1.10114795270114e+02Ḟ)
1.03752841581801e-01	(-3.76714098376357e+00dB,-1.10125448962254e+02Ḟ)
1.03812583711914e-01	(-3.76273299141625e+00dB,-1.10136107336991e+02Ḟ)
1.03872360242262e-01	(-3.75832560020755e+00dB,-1.10146770394909e+02Ḟ)
1.03932171192653e-01	(-3.75391881066575e+00dB,-1.10157438136588e+02Ḟ)
1.03992016582906e-01	(-3.74951262331939e+00dB,-1.10168110562607e+02Ḟ)
1.04051896432852e-01	(-3.74510703869736e+00dB,-1.10178787673542e+02Ḟ)
1.04111810762334e-01	(-3.74070205732878e+00dB,-1.10189469469967e+02Ḟ)
1.04171759591205e-01	(-3.73629767974312e+00dB,-1.10200155952453e+02Ḟ)
1.04231742939330e-01	(-3.73189390647013e+00dB,-1.10210847121570e+02Ḟ)
1.04291760826587e-01	(-3.72749073803984e+00dB,-1.10221542977885e+02Ḟ)
1.04351813272862e-01	(-3.72308817498261e+00dB,-1.10232243521961e+02Ḟ)
1.04411900298056e-01	(-3.71868621782907e+00dB,-1.10242948754361e+02Ḟ)
1.04472021922080e-01	(-3.71428486711016e+00dB,-1.10253658675644e+02Ḟ)
1.04532178164855e-01	(-3.70988412335710e+00dB,-1.10264373286369e+02Ḟ)
1.04592369046317e-01	(-3.70548398710142e+00dB,-1.10275092587089e+02Ḟ)
1.04652594586409e-01	(-3.70108445887494e+00dB,-1.10285816578357e+02Ḟ)
1.04712854805090e-01	(-3.69668553920977e+00dB,-1.10296545260724e+02Ḟ)
1.04773149722327e-01	(-3.69228722863832e+00dB,-1.10307278634737e+02Ḟ)
1.04833479358100e-01	(-3.68788952769331e+00dB,-1.10318016700942e+02Ḟ)
1.04893843732401e-01	(-3.68349243690772e+00dB,-1.10328759459881e+02Ḟ)
1.04954242865232e-01	(-3.67909595681486e+00dB,-1.10339506912095e+02Ḟ)
1.05014676776608e-01	(-3.67470008794831e+00dB,-1.10350259058123e+02Ḟ)
1.05075145486555e-01	(-3.67030483084195e+00dB,-1.10361015898500e+02Ḟ)
1.05135649015110e-01	(-3.66591018602997e+00dB,-1.10371777433759e+02Ḟ)
1.05196187382322e-01	(-3.66151615404682e+00dB,-1.10382543664432e+02Ḟ)
1.05256760608252e-01	(-3.65712273542728e+00dB,-1.10393314591047e+02Ḟ)
1.05317368712971e-01	(-3.65272993070640e+00dB,-1.10404090214130e+02Ḟ)
1.05378011716564e-01	(-3.64833774041953e+00dB,-1.10414870534204e+02Ḟ)
1.05438689639126e-01	(-3.64394616510231e+00dB,-1.10425655551792e+02Ḟ)
1.05499402500762e-01	(-3.63955520529068e+00dB,-1.10436445267412e+02Ḟ)
1.05560150321593e-01	(-3.63516486152087e+00dB,-1.10447239681580e+02Ḟ)
1.05620933121746e-01	(-3.63077513432939e+00dB,-1.10458038794810e+02Ḟ)
1.05681750921365e-01	(-3.62638602425305e+00dB,-1.10468842607613e+02Ḟ)
1.05742603740603e-01	(-3.62199753182896e+00dB,-1.10479651120500e+02Ḟ)
1.05803491599623e-01	(-3.61760965759452e+00dB,-1.10490464333976e+02Ḟ)
1.05864414518602e-01	(-3.61322240208741e+00dB,-1.10501282248545e+02Ḟ)
1.05925372517728e-01	(-3.60883576584561e+00dB,-1.10512104864709e+02Ḟ)
1.05986365617202e-01	(-3.60444974940739e+00dB,-1.10522932182968e+02Ḟ)
1.06047393837233e-01	(-3.60006435331131e+00dB,-1.10533764203818e+02Ḟ)
1.06108457198045e-01	(-3.59567957809622e+00dB,-1.10544600927754e+02Ḟ)
1.06169555719872e-01	(-3.59129542430125e+00dB,-1.10555442355266e+02Ḟ)
1.06230689422961e-01	(-3.58691189246585e+00dB,-1.10566288486845e+02Ḟ)
1.06291858327568e-01	(-3.58252898312972e+00dB,-1.10577139322978e+02Ḟ)
1.06353062453965e-01	(-3.57814669683289e+00dB,-1.10587994864148e+02Ḟ)
1.06414301822431e-01	(-3.57376503411565e+00dB,-1.10598855110838e+02Ḟ)
1.06475576453260e-01	(-3.56938399551859e+00dB,-1.10609720063527e+02Ḟ)
1.06536886366756e-01	(-3.56500358158259e+00dB,-1.10620589722692e+02Ḟ)
1.06598231583235e-01	(-3.56062379284881e+00dB,-1.10631464088807e+02Ḟ)
1.06659612123025e-01	(-3.55624462985872e+00dB,-1.10642343162345e+02Ḟ)
1.06721028006466e-01	(-3.55186609315406e+00dB,-1.10653226943774e+02Ḟ)
1.06782479253909e-01	(-3.54748818327685e+00dB,-1.10664115433561e+02Ḟ)
1.06843965885717e-01	(-3.54311090076942e+00dB,-1.10675008632171e+02Ḟ)
1.06905487922265e-01	(-3.53873424617439e+00dB,-1.10685906540066e+02Ḟ)
1.06967045383939e-01	(-3.53435822003464e+00dB,-1.10696809157704e+02Ḟ)
1.07028638291138e-01	(-3.52998282289336e+00dB,-1.10707716485543e+02Ḟ)
1.07090266664271e-01	(-3.52560805529401e+00dB,-1.10718628524037e+02Ḟ)
1.07151930523760e-01	(-3.52123391778037e+00dB,-1.10729545273637e+02Ḟ)
1.07213629890039e-01	(-3.51686041089647e+00dB,-1.10740466734793e+02Ḟ)
1.07275364783552e-01	(-3.51248753518664e+00dB,-1.10751392907952e+02Ḟ)
1.07337135224758e-01	(-3.50811529119550e+00dB,-1.10762323793557e+02Ḟ)
1.07398941234124e-01	(-3.50374367946794e+00dB,-1.10773259392050e+02Ḟ)
1.07460782832131e-01	(-3.49937270054917e+00dB,-1.10784199703870e+02Ḟ)
1.07522660039272e-01	(-3.49500235498465e+00dB,-1.10795144729453e+02Ḟ)
1.07584572876051e-01	(-3.49063264332015e+00dB,-1.10806094469233e+02Ḟ)
1.07646521362983e-01	(-3.48626356610171e+00dB,-1.10817048923642e+02Ḟ)
1.07708505520597e-01	(-3.48189512387565e+00dB,-1.10828008093108e+02Ḟ)
1.07770525369432e-01	(-3.47752731718859e+00dB,-1.10838971978057e+02Ḟ)
1.07832580930039e-01	(-3.47316014658744e+00dB,-1.10849940578914e+02Ḟ)
1.07894672222982e-01	(-3.46879361261936e+00dB,-1.10860913896098e+02Ḟ)
1.07956799268836e-01	(-3.46442771583184e+00dB,-1.10871891930028e+02Ḟ)
1.08018962088188e-01	(-3.46006245677261e+00dB,-1.10882874681121e+02Ḟ)
1.08081160701637e-01	(-3.45569783598971e+00dB,-1.10893862149789e+02Ḟ)
1.08143395129793e-01	(-3.45133385403146e+00dB,-1.10904854336443e+02Ḟ)
1.08205665393279e-01	(-3.44697051144647e+00dB,-1.10915851241491e+02Ḟ)
1.08267971512729e-01	(-3.44260780878360e+00dB,-1.10926852865338e+02Ḟ)
1.08330313508790e-01	(-3.43824574659203e+00dB,-1.10937859208388e+02Ḟ)
1.08392691402120e-01	(-3.43388432542120e+00dB,-1.10948870271040e+02Ḟ)
1.08455105213388e-01	(-3.42952354582085e+00dB,-1.10959886053692e+02Ḟ)
1.08517554963277e-01	(-3.42516340834097e+00dB,-1.10970906556740e+02Ḟ)
1.08580040672481e-01	(-3.42080391353187e+00dB,-1.10981931780575e+02Ḟ)
1.08642562361706e-01	(-3.41644506194410e+00dB,-1.10992961725586e+02Ḟ)
1.08705120051669e-01	(-3.41208685412855e+00dB,-1.11003996392163e+02Ḟ)
1.08767713763099e-01	(-3.40772929063633e+00dB,-1.11015035780687e+02Ḟ)
1.08830343516740e-01	(-3.40337237201886e+00dB,-1.11026079891543e+02Ḟ)
1.08893009333343e-01	(-3.39901609882784e+00dB,-1.11037128725108e+02Ḟ)
1.08955711233674e-01	(-3.39466047161525e+00dB,-1.11048182281759e+02Ḟ)
1.09018449238512e-01	(-3.39030549093333e+00dB,-1.11059240561871e+02Ḟ)
1.09081223368645e-01	(-3.38595115733462e+00dB,-1.11070303565814e+02Ḟ)
1.09144033644875e-01	(-3.38159747137194e+00dB,-1.11081371293957e+02Ḟ)
1.09206880088015e-01	(-3.37724443359839e+00dB,-1.11092443746666e+02Ḟ)
1.09269762718890e-01	(-3.37289204456732e+00dB,-1.11103520924304e+02Ḟ)
1.09332681558338e-01	(-3.36854030483240e+00dB,-1.11114602827232e+02Ḟ)
1.09395636627209e-01	(-3.36418921494755e+00dB,-1.11125689455808e+02Ḟ)
1.09458627946362e-01	(-3.35983877546698e+00dB,-1.11136780810386e+02Ḟ)
1.09521655536673e-01	(-3.35548898694517e+00dB,-1.11147876891320e+02Ḟ)
1.09584719419026e-01	(-3.35113984993688e+00dB,-1.11158977698960e+02Ḟ)
1.09647819614318e-01	(-3.34679136499715e+00dB,-1.11170083233652e+02Ḟ)
1.09710956143459e-01	(-3.34244353268130e+00dB,-1.11181193495741e+02Ḟ)
1.09774129027371e-01	(-3.33809635354492e+00dB,-1.11192308485569e+02Ḟ)
1.09837338286986e-01	(-3.33374982814387e+00dB,-1.11203428203475e+02Ḟ)
1.09900583943251e-01	(-3.32940395703431e+00dB,-1.11214552649796e+02Ḟ)
1.09963866017124e-01	(-3.32505874077265e+00dB,-1.11225681824865e+02Ḟ)
1.10027184529573e-01	(-3.32071417991558e+00dB,-1.11236815729012e+02Ḟ)
1.10090539501581e-01	(-3.31637027502008e+00dB,-1.11247954362568e+02Ḟ)
1.10153930954141e-01	(-3.31202702664340e+00dB,-1.11259097725856e+02Ḟ)
1.10217358908259e-01	(-3.30768443534306e+00dB,-1.11270245819200e+02Ḟ)
1.10280823384954e-01	(-3.30334250167684e+00dB,-1.11281398642921e+02Ḟ)
1.10344324405256e-01	(-3.29900122620282e+00dB,-1.11292556197334e+02Ḟ)
1.10407861990207e-01	(-3.29466060947935e+00dB,-1.11303718482756e+02Ḟ)
1.10471436160860e-01	(-3.29032065206503e+00dB,-1.11314885499497e+02Ḟ)
1.10535046938284e-01	(-3.28598135451877e+00dB,-1.11326057247868e+02Ḟ)
1.10598694343555e-01	(-3.28164271739971e+00dB,-1.11337233728174e+02Ḟ)
1.10662378397766e-01	(-3.27730474126731e+00dB,-1.11348414940719e+02Ḟ)
1.10726099122019e-01	(-3.27296742668127e+00dB,-1.11359600885805e+02Ḟ)
1.10789856537428e-01	(-3.26863077420157e+00dB,-1.11370791563728e+02Ḟ)
1.10853650665122e-01	(-3.26429478438846e+00dB,-1.11381986974786e+02Ḟ)
1.10917481526239e-01	(-3.25995945780246e+00dB,-1.11393187119270e+02Ḟ)
1.10981349141932e-01	(-3.25562479500438e+00dB,-1.11404391997471e+02Ḟ)
1.11045253533363e-01	(-3.25129079655528e+00dB,-1.11415601609674e+02Ḟ)
1.11109194721709e-01	(-3.24695746301650e+00dB,-1.11426815956166e+02Ḟ)
1.11173172728158e-01	(-3.24262479494964e+00dB,-1.11438035037227e+02Ḟ)
1.11237187573910e-01	(-3.23829279291658e+00dB,-1.11449258853136e+02Ḟ)
1.11301239280178e-01	(-3.23396145747948e+00dB,-1.11460487404169e+02Ḟ)
1.11365327868187e-01	(-3.22963078920075e+00dB,-1.11471720690600e+02Ḟ)
1.11429453359172e-01	(-3.22530078864308e+00dB,-1.11482958712698e+02Ḟ)
1.11493615774384e-01	(-3.22097145636942e+00dB,-1.11494201470731e+02Ḟ)
1.11557815135084e-01	(-3.21664279294301e+00dB,-1.11505448964965e+02Ḟ)
1.11622051462546e-01	(-3.21231479892733e+00dB,-1.11516701195661e+02Ḟ)
1.11686324778055e-01	(-3.20798747488614e+00dB,-1.11527958163078e+02Ḟ)
1.11750635102910e-01	(-3.20366082138349e+00dB,-1.11539219867473e+02Ḟ)
1.11814982458421e-01	(-3.19933483898366e+00dB,-1.11550486309100e+02Ḟ)
1.11879366865911e-01	(-3.19500952825122e+00dB,-1.11561757488208e+02Ḟ)
1.11943788346714e-01	(-3.19068488975100e+00dB,-1.11573033405046e+02Ḟ)
1.12008246922179e-01	(-3.18636092404810e+00dB,-1.11584314059860e+02Ḟ)
1.12072742613664e-01	(-3.18203763170789e+00dB,-1.11595599452891e+02Ḟ)
1.12137275442541e-01	(-3.17771501329599e+00dB,-1.11606889584378e+02Ḟ)
1.12201845430195e-01	(-3.17339306937831e+00dB,-1.11618184454559e+02Ḟ)
1.12266452598023e-01	(-3.16907180052101e+00dB,-1.11629484063667e+02Ḟ)
1.12331096967432e-01	(-3.16475120729050e+00dB,-1.11640788411933e+02Ḟ)
1.12395778559843e-01	(-3.16043129025350e+00dB,-1.11652097499585e+02Ḟ)
1.12460497396692e-01	(-3.15611204997695e+00dB,-1.11663411326848e+02Ḟ)
1.12525253499422e-01	(-3.15179348702807e+00dB,-1.11674729893944e+02Ḟ)
1.12590046889493e-01	(-3.14747560197436e+00dB,-1.11686053201094e+02Ḟ)
1.12654877588375e-01	(-3.14315839538355e+00dB,-1.11697381248513e+02Ḟ)
1.12719745617550e-01	(-3.13884186782366e+00dB,-1.11708714036415e+02Ḟ)
1.12784650998514e-01	(-3.13452601986298e+00dB,-1.11720051565011e+02Ḟ)
1.12849593752775e-01	(-3.13021085207003e+00dB,-1.11731393834510e+02Ḟ)
1.12914573901853e-01	(-3.12589636501361e+00dB,-1.11742740845115e+02Ḟ)
1.12979591467279e-01	(-3.12158255926280e+00dB,-1.11754092597030e+02Ḟ)
1.13044646470599e-01	(-3.11726943538690e+00dB,-1.11765449090454e+02Ḟ)
1.13109738933370e-01	(-3.11295699395552e+00dB,-1.11776810325583e+02Ḟ)
1.13174868877161e-01	(-3.10864523553849e+00dB,-1.11788176302610e+02Ḟ)
1.13240036323555e-01	(-3.10433416070592e+00dB,-1.11799547021727e+02Ḟ)
1.13305241294145e-01	(-3.10002377002819e+00dB,-1.11810922483121e+02Ḟ)
1.13370483810540e-01	(-3.09571406407592e+00dB,-1.11822302686976e+02Ḟ)
1.13435763894358e-01	(-3.09140504342000e+00dB,-1.11833687633475e+02Ḟ)
1.13501081567231e-01	(-3.08709670863158e+00dB,-1.11845077322797e+02Ḟ)
1.13566436850802e-01	(-3.08278906028205e+00dB,-1.11856471755117e+02Ḟ)
1.13631829766730e-01	(-3.07848209894310e+00dB,-1.11867870930609e+02Ḟ)
1.13697260336683e-01	(-3.07417582518664e+00dB,-1.11879274849443e+02Ḟ)
1.13762728582342e-01	(-3.06987023958486e+00dB,-1.11890683511786e+02Ḟ)
1.13828234525402e-01	(-3.06556534271019e+00dB,-1.11902096917802e+02Ḟ)
1.13893778187570e-01	(-3.06126113513535e+00dB,-1.11913515067654e+02Ḟ)
1.13959359590564e-01	(-3.05695761743327e+00dB,-1.11924937961499e+02Ḟ)
1.14024978756116e-01	(-3.05265479017717e+00dB,-1.11936365599493e+02Ḟ)
1.14090635705970e-01	(-3.04835265394052e+00dB,-1.11947797981788e+02Ḟ)
1.14156330461884e-01	(-3.04405120929706e+00dB,-1.11959235108534e+02Ḟ)
1.14222063045625e-01	(-3.03975045682075e+00dB,-1.11970676979878e+02Ḟ)
1.14287833478976e-01	(-3.03545039708583e+00dB,-1.11982123595963e+02Ḟ)
1.14353641783731e-01	(-3.03115103066680e+00dB,-1.11993574956930e+02Ḟ)
1.14419487981698e-01	(-3.02685235813840e+00dB,-1.12005031062917e+02Ḟ)
1.14485372094694e-01	(-3.02255438007564e+00dB,-1.12016491914058e+02Ḟ)
1.14551294144552e-01	(-3.01825709705376e+00dB,-1.12027957510485e+02Ḟ)
1.14617254153118e-01	(-3.01396050964828e+00dB,-1.12039427852328e+02Ḟ)
1.14683252142247e-01	(-3.00966461843496e+00dB,-1.12050902939711e+02Ḟ)
1.14749288133809e-01	(-3.00536942398982e+00dB,-1.12062382772758e+02Ḟ)
1.14815362149687e-01	(-3.00107492688912e+00dB,-1.12073867351588e+02Ḟ)
1.14881474211776e-01	(-2.99678112770939e+00dB,-1.12085356676319e+02Ḟ)
1.14947624341982e-01	(-2.99248802702741e+00dB,-1.12096850747063e+02Ḟ)
1.15013812562227e-01	(-2.98819562542018e+00dB,-1.12108349563933e+02Ḟ)
1.15080038894442e-01	(-2.98390392346499e+00dB,-1.12119853127035e+02Ḟ)
1.15146303360574e-01	(-2.97961292173938e+00dB,-1.12131361436474e+02Ḟ)
1.15212605982580e-01	(-2.97532262082111e+00dB,-1.12142874492353e+02Ḟ)
1.15278946782430e-01	(-2.97103302128821e+00dB,-1.12154392294770e+02Ḟ)
1.15345325782108e-01	(-2.96674412371897e+00dB,-1.12165914843821e+02Ḟ)
1.15411743003610e-01	(-2.96245592869191e+00dB,-1.12177442139597e+02Ḟ)
1.15478198468945e-01	(-2.95816843678582e+00dB,-1.12188974182190e+02Ḟ)
1.15544692200133e-01	(-2.95388164857970e+00dB,-1.12200510971686e+02Ḟ)
1.15611224219209e-01	(-2.94959556465285e+00dB,-1.12212052508168e+02Ḟ)
1.15677794548219e-01	(-2.94531018558479e+00dB,-1.12223598791717e+02Ḟ)
1.15744403209223e-01	(-2.94102551195528e+00dB,-1.12235149822410e+02Ḟ)
1.15811050224292e-01	(-2.93674154434435e+00dB,-1.12246705600322e+02Ḟ)
1.15877735615511e-01	(-2.93245828333227e+00dB,-1.12258266125524e+02Ḟ)
1.15944459404979e-01	(-2.92817572949953e+00dB,-1.12269831398084e+02Ḟ)
1.16011221614804e-01	(-2.92389388342691e+00dB,-1.12281401418068e+02Ḟ)
1.16078022267110e-01	(-2.91961274569541e+00dB,-1.12292976185538e+02Ḟ)
1.16144861384033e-01	(-2.91533231688628e+00dB,-1.12304555700554e+02Ḟ)
1.16211738987721e-01	(-2.91105259758102e+00dB,-1.12316139963170e+02Ḟ)
1.16278655100334e-01	(-2.90677358836137e+00dB,-1.12327728973440e+02Ḟ)
1.16345609744048e-01	(-2.90249528980931e+00dB,-1.12339322731414e+02Ḟ)
1.16412602941048e-01	(-2.89821770250708e+00dB,-1.12350921237139e+02Ḟ)
1.16479634713534e-01	(-2.89394082703714e+00dB,-1.12362524490658e+02Ḟ)
1.16546705083719e-01	(-2.88966466398222e+00dB,-1.12374132492013e+02Ḟ)
1.16613814073826e-01	(-2.88538921392527e+00dB,-1.12385745241240e+02Ḟ)
1.16680961706095e-01	(-2.88111447744951e+00dB,-1.12397362738374e+02Ḟ)
1.16748148002776e-01	(-2.87684045513836e+00dB,-1.12408984983446e+02Ḟ)
1.16815372986131e-01	(-2.87256714757554e+00dB,-1.12420611976485e+02Ḟ)
1.16882636678438e-01	(-2.86829455534495e+00dB,-1.12432243717516e+02Ḟ)
1.16949939101986e-01	(-2.86402267903078e+00dB,-1.12443880206560e+02Ḟ)
1.17017280279076e-01	(-2.85975151921743e+00dB,-1.12455521443636e+02Ḟ)
1.17084660232023e-01	(-2.85548107648956e+00dB,-1.12467167428761e+02Ḟ)
1.17152078983155e-01	(-2.85121135143206e+00dB,-1.12478818161946e+02Ḟ)
1.17219536554812e-01	(-2.84694234463006e+00dB,-1.12490473643201e+02Ḟ)
1.17287032969347e-01	(-2.84267405666892e+00dB,-1.12502133872533e+02Ḟ)
1.17354568249128e-01	(-2.83840648813426e+00dB,-1.12513798849945e+02Ḟ)
1.17422142416532e-01	(-2.83413963961193e+00dB,-1.12525468575436e+02Ḟ)
1.17489755493952e-01	(-2.82987351168802e+00dB,-1.12537143049004e+02Ḟ)
1.17557407503792e-01	(-2.82560810494884e+00dB,-1.12548822270642e+02Ḟ)
1.17625098468471e-01	(-2.82134341998096e+00dB,-1.12560506240342e+02Ḟ)
1.17692828410419e-01	(-2.81707945737119e+00dB,-1.12572194958089e+02Ḟ)
1.17760597352079e-01	(-2.81281621770654e+00dB,-1.12583888423869e+02Ḟ)
