time	V(n002)	V(n003)
0.000000000000000e+00	7.657866e-01	8.557248e+00
1.338588169642857e-02	6.783068e-01	8.791084e+00
2.677176339285714e-02	6.013736e-01	9.005358e+00
4.015764508928571e-02	5.349867e-01	9.200070e+00
5.354352678571428e-02	4.791464e-01	9.375220e+00
6.692940848214285e-02	4.338526e-01	9.530808e+00
8.031529017857142e-02	3.991052e-01	9.666834e+00
9.370117187499996e-02	3.749042e-01	9.783298e+00
1.035644531250000e-01	3.649055e-01	9.852084e+00
1.134277343750000e-01	3.610851e-01	9.908000e+00
1.232910156249999e-01	3.634425e-01	9.950830e+00
1.331542968749999e-01	3.719410e-01	9.980412e+00
1.430175781249999e-01	3.865331e-01	9.996633e+00
1.528808593749999e-01	4.071364e-01	9.999427e+00
1.627441406250000e-01	4.336571e-01	9.988786e+00
1.726074218750000e-01	4.659682e-01	9.964749e+00
1.824707031250000e-01	5.039312e-01	9.927410e+00
1.923339843750000e-01	5.473762e-01	9.876912e+00
2.021972656250000e-01	5.961223e-01	9.813449e+00
2.120605468750001e-01	6.499593e-01	9.737265e+00
2.219238281250001e-01	7.086664e-01	9.648650e+00
2.317871093750001e-01	7.719965e-01	9.547947e+00
2.515136718750002e-01	9.114739e-01	9.311866e+00
2.613769531250002e-01	9.870511e-01	9.177394e+00
2.712402343750002e-01	1.066114e+00	9.032642e+00
2.811035156250002e-01	1.148347e+00	8.878167e+00
2.909667968750003e-01	1.233413e+00	8.714561e+00
3.008300781250003e-01	1.320974e+00	8.542453e+00
3.106933593750003e-01	1.410676e+00	8.362502e+00
3.205566406250003e-01	1.502161e+00	8.175401e+00
3.304199218750004e-01	1.595060e+00	7.981867e+00
3.402832031250004e-01	1.689004e+00	7.782643e+00
3.473284040178575e-01	1.756882e+00	7.636544e+00
3.543736049107147e-01	1.824620e+00	7.488951e+00
3.614188058035719e-01	1.892218e+00	7.339861e+00
3.684640066964290e-01	1.959675e+00	7.189277e+00
3.755092075892862e-01	2.026991e+00	7.037198e+00
3.825544084821433e-01	2.094167e+00	6.883623e+00
3.895996093750005e-01	2.161203e+00	6.728554e+00
3.994628906250005e-01	2.253503e+00	6.511812e+00
4.093261718750005e-01	2.344222e+00	6.295024e+00
4.191894531250006e-01	2.433000e+00	6.079023e+00
4.290527343750006e-01	2.519483e+00	5.864639e+00
4.389160156250006e-01	2.603328e+00	5.652695e+00
4.487792968750006e-01	2.684198e+00	5.444003e+00
4.586425781250006e-01	2.761774e+00	5.239366e+00
4.685058593750007e-01	2.835743e+00	5.039568e+00
4.783691406250007e-01	2.905813e+00	4.845378e+00
4.882324218750007e-01	2.971700e+00	4.657541e+00
4.980957031250007e-01	3.033143e+00	4.476778e+00
5.079589843750008e-01	3.089893e+00	4.303782e+00
5.178222656250008e-01	3.141723e+00	4.139219e+00
5.276855468750008e-01	3.188422e+00	3.983720e+00
5.375488281250008e-01	3.229801e+00	3.837882e+00
5.474121093750008e-01	3.265691e+00	3.702265e+00
5.572753906250009e-01	3.295944e+00	3.577389e+00
5.671386718750009e-01	3.320434e+00	3.463734e+00
5.770019531250009e-01	3.339058e+00	3.361737e+00
5.868652343750009e-01	3.351733e+00	3.271789e+00
5.967285156250010e-01	3.358403e+00	3.194236e+00
6.065917968750010e-01	3.359033e+00	3.129374e+00
6.164550781250010e-01	3.353611e+00	3.077454e+00
6.263183593750010e-01	3.342148e+00	3.038674e+00
6.361816406250010e-01	3.324681e+00	3.013184e+00
6.460449218750011e-01	3.301268e+00	3.001081e+00
6.559082031250011e-01	3.271990e+00	3.002411e+00
6.657714843750011e-01	3.236951e+00	3.017171e+00
6.756347656250011e-01	3.196278e+00	3.045302e+00
6.854980468750012e-01	3.150119e+00	3.086697e+00
6.953613281250012e-01	3.098644e+00	3.141198e+00
7.052246093750012e-01	3.042042e+00	3.208594e+00
7.150878906250012e-01	2.980523e+00	3.288627e+00
7.249511718750012e-01	2.914315e+00	3.380990e+00
7.348144531250013e-01	2.843667e+00	3.485328e+00
7.446777343750013e-01	2.768841e+00	3.601240e+00
7.545410156250013e-01	2.690119e+00	3.728282e+00
7.644042968750013e-01	2.607794e+00	3.865966e+00
7.742675781250014e-01	2.522177e+00	4.013763e+00
7.841308593750014e-01	2.433590e+00	4.171106e+00
7.939941406250014e-01	2.342366e+00	4.337390e+00
8.038574218750014e-01	2.248848e+00	4.511977e+00
8.137207031250014e-01	2.153390e+00	4.694198e+00
8.334472656250015e-01	1.958101e+00	5.078711e+00
8.729003906250016e-01	1.560423e+00	5.906924e+00
8.926269531250016e-01	1.364043e+00	6.337916e+00
9.123535156250014e-01	1.173275e+00	6.771395e+00
9.320800781250013e-01	9.910043e-01	7.200710e+00
9.518066406250011e-01	8.199855e-01	7.619275e+00
9.616699218750010e-01	7.395111e-01	7.822509e+00
9.715332031250009e-01	6.628035e-01	8.020666e+00
9.813964843750008e-01	5.901523e-01	8.212984e+00
9.912597656250007e-01	5.218319e-01	8.398726e+00
1.001123046875001e+00	4.581000e-01	8.577177e+00
1.010986328125000e+00	3.991969e-01	8.747654e+00
1.020849609375000e+00	3.453443e-01	8.909501e+00
1.030712890625000e+00	2.967446e-01	9.062097e+00
1.040576171875000e+00	2.535803e-01	9.204855e+00
1.050439453125000e+00	2.160129e-01	9.337229e+00
1.060302734375000e+00	1.841824e-01	9.458710e+00
1.070166015625000e+00	1.582071e-01	9.568830e+00
1.080029296875000e+00	1.381828e-01	9.667169e+00
1.089892578125000e+00	1.241825e-01	9.753347e+00
1.099755859375000e+00	1.162560e-01	9.827035e+00
1.109619140625000e+00	1.144301e-01	9.887948e+00
1.119482421874999e+00	1.187081e-01	9.935854e+00
1.129345703124999e+00	1.290699e-01	9.970569e+00
1.139208984374999e+00	1.454722e-01	9.991959e+00
1.149072265624999e+00	1.678486e-01	9.999941e+00
1.158935546874999e+00	1.961096e-01	9.994485e+00
1.168798828124999e+00	2.301435e-01	9.975614e+00
1.178662109374999e+00	2.698161e-01	9.943397e+00
1.188525390624999e+00	3.149719e-01	9.897960e+00
1.198388671874999e+00	3.654344e-01	9.839477e+00
1.208251953124999e+00	4.210067e-01	9.768172e+00
1.218115234374999e+00	4.814722e-01	9.684320e+00
1.227978515624998e+00	5.465959e-01	9.588242e+00
1.237841796874998e+00	6.161246e-01	9.480307e+00
1.247705078124998e+00	6.897885e-01	9.360929e+00
1.267431640624998e+00	8.483643e-01	9.089721e+00
1.287158203124998e+00	1.019868e+00	8.778778e+00
1.306884765624998e+00	1.201646e+00	8.432874e+00
1.326611328124998e+00	1.390889e+00	8.057313e+00
1.346337890624997e+00	1.584673e+00	7.657859e+00
1.375927734374997e+00	1.877310e+00	7.027360e+00
1.395654296874997e+00	2.069315e+00	6.595555e+00
1.405517578124997e+00	2.163275e+00	6.378686e+00
1.415380859374997e+00	2.255388e+00	6.162283e+00
1.425244140624997e+00	2.345296e+00	5.947177e+00
1.435107421874997e+00	2.432654e+00	5.734193e+00
1.444970703124997e+00	2.517124e+00	5.524150e+00
1.454833984374996e+00	2.598379e+00	5.317853e+00
1.464697265624996e+00	2.676105e+00	5.116095e+00
1.474560546874996e+00	2.750003e+00	4.919650e+00
1.484423828124996e+00	2.819786e+00	4.729273e+00
1.494287109374996e+00	2.885185e+00	4.545694e+00
1.504150390624996e+00	2.945946e+00	4.369619e+00
1.514013671874996e+00	3.001834e+00	4.201723e+00
1.523876953124996e+00	3.052634e+00	4.042651e+00
1.533740234374996e+00	3.098148e+00	3.893014e+00
1.543603515624996e+00	3.138200e+00	3.753386e+00
1.553466796874996e+00	3.172634e+00	3.624304e+00
1.563330078124995e+00	3.201317e+00	3.506262e+00
1.573193359374995e+00	3.224136e+00	3.399715e+00
1.583056640624995e+00	3.241003e+00	3.305071e+00
1.592919921874995e+00	3.251851e+00	3.222693e+00
1.602783203124995e+00	3.256637e+00	3.152899e+00
1.612646484374995e+00	3.255341e+00	3.095955e+00
1.622509765624995e+00	3.247967e+00	3.052080e+00
1.632373046874995e+00	3.234541e+00	3.021444e+00
1.642236328124995e+00	3.215113e+00	3.004163e+00
1.652099609374995e+00	3.189757e+00	3.000304e+00
1.661962890624995e+00	3.158568e+00	3.009882e+00
1.671826171874994e+00	3.121665e+00	3.032860e+00
1.681689453124994e+00	3.079189e+00	3.069150e+00
1.691552734374994e+00	3.031300e+00	3.118612e+00
1.701416015624994e+00	2.978182e+00	3.181056e+00
1.711279296874994e+00	2.920037e+00	3.256244e+00
1.721142578124994e+00	2.857087e+00	3.343885e+00
1.731005859374994e+00	2.789573e+00	3.443644e+00
1.740869140624994e+00	2.717752e+00	3.555138e+00
1.750732421874994e+00	2.641900e+00	3.677938e+00
1.760595703124994e+00	2.562306e+00	3.811573e+00
1.770458984374994e+00	2.479274e+00	3.955530e+00
1.780322265624994e+00	2.393123e+00	4.109256e+00
1.790185546874993e+00	2.304182e+00	4.272161e+00
1.800048828124993e+00	2.212790e+00	4.443620e+00
1.809912109374993e+00	2.119300e+00	4.622974e+00
1.829638671874993e+00	1.927456e+00	5.002586e+00
1.849365234374993e+00	1.731587e+00	5.405173e+00
1.869091796874993e+00	1.534689e+00	5.824557e+00
1.888818359374993e+00	1.339775e+00	6.254305e+00
1.908544921874992e+00	1.149829e+00	6.687822e+00
1.928271484374992e+00	9.677578e-01	7.118458e+00
1.947998046874992e+00	7.963476e-01	7.539605e+00
1.957861328124992e+00	7.154677e-01	7.744592e+00
1.967724609374992e+00	6.382218e-01	7.944801e+00
1.977587890624992e+00	5.649058e-01	8.139462e+00
1.987451171874992e+00	4.958002e-01	8.327829e+00
1.997314453124992e+00	4.311697e-01	8.509179e+00
2.007177734374991e+00	3.712616e-01	8.682814e+00
2.017041015624991e+00	3.163053e-01	8.848068e+00
2.026904296874991e+00	2.665109e-01	9.004308e+00
2.036767578124991e+00	2.220689e-01	9.150932e+00
2.046630859374991e+00	1.831493e-01	9.287378e+00
2.056494140624991e+00	1.499007e-01	9.413123e+00
2.066357421874991e+00	1.224502e-01	9.527683e+00
2.076220703124991e+00	1.009025e-01	9.630618e+00
2.086083984374991e+00	8.533965e-02	9.721534e+00
2.095947265624991e+00	7.582072e-02	9.800080e+00
2.105810546874991e+00	7.238165e-02	9.865957e+00
2.115673828124990e+00	7.503500e-02	9.918911e+00
2.125537109374990e+00	8.376998e-02	9.958737e+00
2.135400390624990e+00	9.855246e-02	9.985285e+00
2.145263671874990e+00	1.193251e-01	9.998450e+00
2.155126953124990e+00	1.460075e-01	9.998184e+00
2.164990234374990e+00	1.784967e-01	9.984488e+00
2.174853515624990e+00	2.166673e-01	9.957412e+00
2.184716796874990e+00	2.603724e-01	9.917062e+00
2.194580078124990e+00	3.094434e-01	9.863592e+00
2.204443359374990e+00	3.636916e-01	9.797209e+00
2.214306640624990e+00	4.229080e-01	9.718166e+00
2.224169921874990e+00	4.868648e-01	9.626768e+00
2.234033203124989e+00	5.553160e-01	9.523364e+00
2.243896484374989e+00	6.279982e-01	9.408353e+00
2.253759765624989e+00	7.046319e-01	9.282175e+00
2.273486328124989e+00	8.685610e-01	8.998300e+00
2.293212890624989e+00	1.044584e+00	8.676092e+00
2.312939453124989e+00	1.229997e+00	8.320498e+00
2.332666015624989e+00	1.421952e+00	7.936972e+00
2.352392578124988e+00	1.617500e+00	7.531399e+00
2.372119140624988e+00	1.813637e+00	7.110001e+00
2.391845703124988e+00	2.007352e+00	6.679244e+00
2.401708984374988e+00	2.102368e+00	6.462418e+00
2.411572265624988e+00	2.195668e+00	6.245737e+00
2.421435546874988e+00	2.286894e+00	6.030032e+00
2.431298828124988e+00	2.375694e+00	5.816131e+00
2.441162109374988e+00	2.461728e+00	5.604856e+00
2.451025390624987e+00	2.544665e+00	5.397017e+00
2.460888671874987e+00	2.624186e+00	5.193414e+00
2.470751953124987e+00	2.699986e+00	4.994827e+00
2.480615234374987e+00	2.771772e+00	4.802019e+00
2.490478515624987e+00	2.839270e+00	4.615730e+00
2.500341796874987e+00	2.902219e+00	4.436676e+00
2.510205078124987e+00	2.960378e+00	4.265543e+00
2.520068359374987e+00	3.013524e+00	4.102990e+00
2.529931640624987e+00	3.061451e+00	3.949639e+00
2.539794921874987e+00	3.103975e+00	3.806081e+00
2.549658203124987e+00	3.140934e+00	3.672865e+00
2.559521484374986e+00	3.172184e+00	3.550504e+00
2.569384765624986e+00	3.197605e+00	3.439467e+00
2.579248046874986e+00	3.217100e+00	3.340181e+00
2.589111328124986e+00	3.230593e+00	3.253027e+00
2.598974609374986e+00	3.238033e+00	3.178339e+00
2.608837890624986e+00	3.239391e+00	3.116405e+00
2.618701171874986e+00	3.234660e+00	3.067461e+00
2.628564453124986e+00	3.223860e+00	3.031696e+00
2.638427734374986e+00	3.207030e+00	3.009248e+00
2.648291015624986e+00	3.184237e+00	3.000202e+00
2.658154296874986e+00	3.155566e+00	3.004593e+00
2.668017578124986e+00	3.121128e+00	3.022404e+00
2.677880859374985e+00	3.081054e+00	3.053567e+00
2.687744140624985e+00	3.035499e+00	3.097963e+00
2.697607421874985e+00	2.984637e+00	3.155420e+00
2.707470703124985e+00	2.928663e+00	3.225718e+00
2.717333984374985e+00	2.867792e+00	3.308588e+00
2.727197265624985e+00	2.802257e+00	3.403711e+00
2.737060546874985e+00	2.732309e+00	3.510721e+00
2.746923828124985e+00	2.658218e+00	3.629209e+00
2.756787109374985e+00	2.580267e+00	3.758719e+00
2.766650390624985e+00	2.498755e+00	3.898754e+00
2.776513671874985e+00	2.413996e+00	4.048776e+00
2.786376953124984e+00	2.326314e+00	4.208209e+00
2.796240234374984e+00	2.236046e+00	4.376441e+00
2.806103515624984e+00	2.143538e+00	4.552826e+00
2.825830078124984e+00	1.953229e+00	4.927320e+00
2.845556640624984e+00	1.758308e+00	5.325942e+00
2.865283203124984e+00	1.561762e+00	5.742578e+00
2.885009765624984e+00	1.366607e+00	6.170835e+00
2.904736328124983e+00	1.175834e+00	6.604142e+00
2.924462890624983e+00	9.923710e-01	7.035851e+00
2.944189453124983e+00	8.190302e-01	7.459339e+00
2.963916015624983e+00	6.584705e-01	7.868108e+00
2.973779296874983e+00	5.837616e-01	8.065001e+00
2.983642578124983e+00	5.131540e-01	8.255886e+00
2.993505859374983e+00	4.469186e-01	8.440029e+00
3.003369140624983e+00	3.853095e-01	8.616724e+00
3.013232421874982e+00	3.285632e-01	8.785292e+00
3.023095703124982e+00	2.768974e-01	8.945086e+00
3.032958984374982e+00	2.305103e-01	9.095491e+00
3.042822265624982e+00	1.895799e-01	9.235932e+00
3.052685546874982e+00	1.542634e-01	9.365869e+00
3.062548828124982e+00	1.246960e-01	9.484801e+00
3.072412109374982e+00	1.009913e-01	9.592275e+00
3.082275390624982e+00	8.324008e-02	9.687876e+00
3.092138671874982e+00	7.151049e-02	9.771237e+00
3.102001953124982e+00	6.584740e-02	9.842039e+00
3.111865234374982e+00	6.627245e-02	9.900009e+00
3.121728515624981e+00	7.278392e-02	9.944925e+00
3.131591796874981e+00	8.535669e-02	9.976615e+00
3.141455078124981e+00	1.039424e-01	9.994957e+00
3.151318359374981e+00	1.284696e-01	9.999880e+00
3.161181640624981e+00	1.588440e-01	9.991365e+00
3.171044921874981e+00	1.949489e-01	9.969446e+00
3.180908203124981e+00	2.366455e-01	9.934207e+00
3.190771484374981e+00	2.837738e-01	9.885782e+00
3.200634765624981e+00	3.361526e-01	9.824358e+00
3.210498046874981e+00	3.935808e-01	9.750170e+00
3.220361328124981e+00	4.558378e-01	9.663504e+00
3.230224609374980e+00	5.226845e-01	9.564691e+00
3.240087890624980e+00	5.938641e-01	9.454112e+00
3.249951171874980e+00	6.691032e-01	9.332191e+00
3.269677734374980e+00	8.305900e-01	9.056236e+00
3.289404296874980e+00	1.004666e+00	8.741062e+00
3.309130859374980e+00	1.188661e+00	8.391503e+00
3.328857421874980e+00	1.379750e+00	8.012924e+00
3.348583984374979e+00	1.575002e+00	7.611132e+00
3.368310546874979e+00	1.771419e+00	7.192292e+00
3.388037109374979e+00	1.965988e+00	6.762830e+00
3.407763671874979e+00	2.155724e+00	6.329336e+00
3.417626953124979e+00	2.247864e+00	6.113155e+00
3.427490234374979e+00	2.337713e+00	5.898460e+00
3.437353515624979e+00	2.424925e+00	5.686074e+00
3.447216796874979e+00	2.509165e+00	5.476813e+00
3.457080078124978e+00	2.590109e+00	5.271481e+00
3.466943359374978e+00	2.667447e+00	5.070865e+00
3.476806640624978e+00	2.740881e+00	4.875737e+00
3.486669921874978e+00	2.810130e+00	4.686844e+00
3.496533203124978e+00	2.874928e+00	4.504913e+00
3.506396484374978e+00	2.935026e+00	4.330642e+00
3.516259765624978e+00	2.990193e+00	4.164701e+00
3.526123046874978e+00	3.040218e+00	4.007725e+00
3.535986328124978e+00	3.084907e+00	3.860317e+00
3.545849609374978e+00	3.124090e+00	3.723045e+00
3.555712890624978e+00	3.157616e+00	3.596435e+00
3.565576171874977e+00	3.185357e+00	3.480973e+00
3.575439453124977e+00	3.207205e+00	3.377102e+00
3.585302734374977e+00	3.223077e+00	3.285221e+00
3.595166015624977e+00	3.232911e+00	3.205683e+00
3.605029296874977e+00	3.236671e+00	3.138793e+00
3.614892578124977e+00	3.234341e+00	3.084807e+00
3.624755859374977e+00	3.225931e+00	3.043935e+00
3.634619140624977e+00	3.211472e+00	3.016331e+00
3.644482421874977e+00	3.191020e+00	3.002103e+00
3.654345703124977e+00	3.164654e+00	3.001305e+00
3.664208984374977e+00	3.132475e+00	3.013939e+00
3.674072265624976e+00	3.094607e+00	3.039958e+00
3.683935546874976e+00	3.051193e+00	3.079261e+00
3.693798828124976e+00	3.002403e+00	3.131698e+00
3.703662109374976e+00	2.948421e+00	3.197067e+00
3.713525390624976e+00	2.889457e+00	3.275118e+00
3.723388671874976e+00	2.825736e+00	3.365550e+00
3.733251953124976e+00	2.757503e+00	3.468017e+00
3.743115234374976e+00	2.685019e+00	3.582124e+00
3.752978515624976e+00	2.608564e+00	3.707435e+00
3.762841796874976e+00	2.528430e+00	3.843467e+00
3.772705078124976e+00	2.444925e+00	3.989699e+00
3.782568359374975e+00	2.358369e+00	4.145568e+00
3.792431640624975e+00	2.269096e+00	4.310478e+00
3.802294921874975e+00	2.177448e+00	4.483794e+00
3.822021484374975e+00	1.988440e+00	4.852953e+00
3.841748046874975e+00	1.794246e+00	5.247383e+00
3.871337890624975e+00	1.499759e+00	5.873089e+00
3.891064453124975e+00	1.305696e+00	6.303600e+00
3.910791015624975e+00	1.116920e+00	6.737125e+00
3.930517578124976e+00	9.363294e-01	7.167012e+00
3.950244140624977e+00	7.666934e-01	7.586664e+00
3.960107421874977e+00	6.868045e-01	7.790632e+00
3.969970703124977e+00	6.106150e-01	7.989645e+00
3.979833984374978e+00	5.384172e-01	8.182938e+00
3.989697265624978e+00	4.704885e-01	8.369769e+00
3.999560546874978e+00	4.070896e-01	8.549422e+00
4.009423828124979e+00	3.484639e-01	8.721207e+00
4.019287109374980e+00	2.948364e-01	8.884462e+00
4.029150390624980e+00	2.464131e-01	9.038564e+00
4.039013671874980e+00	2.033798e-01	9.182919e+00
4.048876953124981e+00	1.659017e-01	9.316973e+00
4.058740234374981e+00	1.341227e-01	9.440211e+00
4.068603515624981e+00	1.081648e-01	9.552160e+00
4.078466796874982e+00	8.812767e-02	9.652392e+00
4.088330078124982e+00	7.408816e-02	9.740520e+00
4.098193359374982e+00	6.610020e-02	9.816206e+00
4.108056640624983e+00	6.419441e-02	9.879161e+00
4.117919921874983e+00	6.837812e-02	9.929140e+00
4.127783203124983e+00	7.863522e-02	9.965955e+00
4.137646484374984e+00	9.492633e-02	9.989462e+00
4.147509765624984e+00	1.171889e-01	9.999572e+00
4.157373046874985e+00	1.453374e-01	9.996245e+00
4.167236328124985e+00	1.792638e-01	9.979495e+00
4.177099609374985e+00	2.188377e-01	9.949386e+00
4.186962890624986e+00	2.639073e-01	9.906033e+00
4.196826171874986e+00	3.142995e-01	9.849603e+00
4.206689453124986e+00	3.698207e-01	9.780313e+00
4.216552734374987e+00	4.302579e-01	9.698427e+00
4.226416015624987e+00	4.953788e-01	9.604262e+00
4.236279296874987e+00	5.649336e-01	9.498178e+00
4.246142578124988e+00	6.386552e-01	9.380585e+00
4.265869140624988e+00	7.974513e-01	9.112710e+00
4.285595703124989e+00	9.693308e-01	8.804749e+00
4.305322265624990e+00	1.151656e+00	8.461427e+00
4.325048828124991e+00	1.341630e+00	8.088010e+00
4.344775390624991e+00	1.536338e+00	7.690229e+00
4.374365234374992e+00	1.830732e+00	7.061304e+00
4.394091796874993e+00	2.024158e+00	6.629899e+00
4.403955078124993e+00	2.118902e+00	6.413032e+00
4.413818359374994e+00	2.211846e+00	6.196500e+00
4.423681640624994e+00	2.302633e+00	5.981133e+00
4.433544921874994e+00	2.390915e+00	5.767758e+00
4.443408203124995e+00	2.476353e+00	5.557195e+00
4.453271484374995e+00	2.558619e+00	5.350251e+00
4.463134765624996e+00	2.637397e+00	5.147722e+00
4.472998046874996e+00	2.712384e+00	4.950385e+00
4.482861328124996e+00	2.783292e+00	4.758997e+00
4.492724609374997e+00	2.849850e+00	4.574294e+00
4.502587890624997e+00	2.911802e+00	4.396984e+00
4.512451171874997e+00	2.968909e+00	4.227748e+00
4.522314453124998e+00	3.020953e+00	4.067237e+00
4.532177734374998e+00	3.067734e+00	3.916066e+00
4.542041015624998e+00	3.109072e+00	3.774816e+00
4.551904296874999e+00	3.144809e+00	3.644029e+00
4.561767578124999e+00	3.174806e+00	3.524207e+00
4.571630859374999e+00	3.198950e+00	3.415810e+00
4.581494140625000e+00	3.217147e+00	3.319255e+00
4.591357421875000e+00	3.229328e+00	3.234912e+00
4.601220703125001e+00	3.235445e+00	3.163105e+00
4.611083984375001e+00	3.235475e+00	3.104109e+00
4.620947265625001e+00	3.229419e+00	3.058152e+00
4.630810546875002e+00	3.217299e+00	3.025409e+00
4.640673828125002e+00	3.199161e+00	3.006007e+00
4.650537109375002e+00	3.175076e+00	3.000020e+00
4.660400390625003e+00	3.145137e+00	3.007470e+00
4.670263671875003e+00	3.109457e+00	3.028330e+00
4.680126953125003e+00	3.068173e+00	3.062519e+00
4.689990234375004e+00	3.021445e+00	3.109905e+00
4.699853515625004e+00	2.969452e+00	3.170308e+00
4.709716796875004e+00	2.912394e+00	3.243495e+00
4.719580078125005e+00	2.850488e+00	3.329185e+00
