time	V(n002)	V(n003)
0.000000000000000e+00	1.711905e+00	6.500000e+00
3.808593750000144e-05	1.690682e+00	6.547787e+00
8.886718750000799e-05	1.661936e+00	6.610748e+00
1.904296875000072e-04	1.604538e+00	6.730269e+00
3.104296875000023e-04	1.540814e+00	6.851709e+00
4.304296874999974e-04	1.486855e+00	6.941400e+00
5.504296874999925e-04	1.447603e+00	6.991244e+00
6.345097903620450e-04	1.430793e+00	6.999857e+00
6.779843990053491e-04	1.425909e+00	6.995574e+00
7.486771756185784e-04	1.423727e+00	6.976039e+00
8.626405232724094e-04	1.435155e+00	6.913441e+00
9.826405232724045e-04	1.466052e+00	6.811256e+00
1.102640523272400e-03	1.513560e+00	6.680973e+00
1.222640523272395e-03	1.573396e+00	6.534354e+00
1.342640523272390e-03	1.640157e+00	6.384634e+00
1.462640523272385e-03	1.707817e+00	6.245327e+00
1.582640523272380e-03	1.770270e+00	6.129011e+00
1.702640523272375e-03	1.821876e+00	6.046184e+00
1.822640523272370e-03	1.857978e+00	6.004323e+00
1.892944085098547e-03	1.870602e+00	6.000508e+00
1.941714864833174e-03	1.875316e+00	6.007012e+00
2.020936910914178e-03	1.875722e+00	6.033257e+00
2.140936910914173e-03	1.859478e+00	6.107584e+00
2.260936910914169e-03	1.824351e+00	6.217336e+00
2.380936910914164e-03	1.773500e+00	6.352604e+00
2.500936910914159e-03	1.711513e+00	6.501177e+00
2.620936910914154e-03	1.643985e+00	6.649644e+00
2.740936910914149e-03	1.577011e+00	6.784603e+00
2.860936910914144e-03	1.516636e+00	6.893870e+00
2.980936910914139e-03	1.468312e+00	6.967583e+00
3.100936910914134e-03	1.436399e+00	6.999086e+00
3.153546980953811e-03	1.428342e+00	6.998713e+00
3.208968193805284e-03	1.424081e+00	6.988907e+00
3.298836227974555e-03	1.426517e+00	6.953034e+00
3.418836227974550e-03	1.447340e+00	6.869742e+00
3.538836227974546e-03	1.486461e+00	6.753074e+00
3.658836227974541e-03	1.540354e+00	6.613560e+00
3.778836227974536e-03	1.604155e+00	6.463795e+00
3.898836227974531e-03	1.672106e+00	6.317298e+00
4.018836227974526e-03	1.738072e+00	6.187294e+00
4.138836227974521e-03	1.796099e+00	6.085518e+00
4.258836227974516e-03	1.840948e+00	6.021158e+00
4.368291627654786e-03	1.866932e+00	6.000071e+00
4.410006422621474e-03	1.872628e+00	6.001934e+00
4.469473241605751e-03	1.876478e+00	6.014028e+00
4.565776356185727e-03	1.871984e+00	6.056381e+00
4.685776356185722e-03	1.848425e+00	6.144918e+00
4.805776356185718e-03	1.806970e+00	6.265509e+00
4.925776356185713e-03	1.751358e+00	6.407268e+00
5.045776356185708e-03	1.686607e+00	6.557397e+00
5.165776356185703e-03	1.618563e+00	6.702346e+00
5.285776356185698e-03	1.553367e+00	6.829028e+00
5.405776356185693e-03	1.496906e+00	6.926009e+00
5.525776356185688e-03	1.454276e+00	6.984533e+00
5.624976236050280e-03	1.432225e+00	7.000000e+00
5.662491167380240e-03	1.427346e+00	6.997782e+00
5.723512720635163e-03	1.423684e+00	6.984753e+00
5.822279633576732e-03	1.429033e+00	6.939790e+00
5.942279633576728e-03	1.453633e+00	6.849281e+00
6.062279633576723e-03	1.495964e+00	6.727242e+00
6.182279633576718e-03	1.552210e+00	6.584690e+00
6.302279633576713e-03	1.617294e+00	6.434492e+00
6.422279633576708e-03	1.685341e+00	6.290208e+00
6.542279633576703e-03	1.750209e+00	6.164863e+00
6.662279633576698e-03	1.806042e+00	6.069770e+00
6.782279633576693e-03	1.847800e+00	6.013515e+00
6.877511716924120e-03	1.868411e+00	6.000010e+00
6.916589864730052e-03	1.873311e+00	6.002729e+00
6.980173988332325e-03	1.876636e+00	6.017366e+00
7.082989894277719e-03	1.869803e+00	6.066772e+00
7.202989894277714e-03	1.843506e+00	6.160475e+00
7.322989894277709e-03	1.799756e+00	6.284828e+00
7.442989894277705e-03	1.742500e+00	6.428604e+00
7.562989894277700e-03	1.676905e+00	6.578825e+00
7.682989894277695e-03	1.608892e+00	6.721931e+00
7.802989894277690e-03	1.544601e+00	6.845003e+00
7.922989894277685e-03	1.489835e+00	6.936931e+00
8.042989894277680e-03	1.449539e+00	6.989417e+00
8.131654290888246e-03	1.431208e+00	6.999930e+00
8.173335110264024e-03	1.426303e+00	6.996315e+00
8.241130314972270e-03	1.423617e+00	6.978854e+00
8.350565582264435e-03	1.433089e+00	6.921782e+00
8.470565582264430e-03	1.462131e+00	6.822986e+00
8.590565582264426e-03	1.508139e+00	6.695033e+00
8.710565582264421e-03	1.566963e+00	6.549474e+00
8.830565582264416e-03	1.633294e+00	6.399449e+00
8.950565582264411e-03	1.701143e+00	6.258501e+00
9.070565582264406e-03	1.764387e+00	6.139353e+00
9.190565582264401e-03	1.817316e+00	6.052761e+00
9.310565582264396e-03	1.855151e+00	6.006542e+00
9.388374198146934e-03	1.869989e+00	6.000282e+00
9.434275872382575e-03	1.874816e+00	6.005538e+00
9.508882388175210e-03	1.876239e+00	6.028039e+00
9.628882388175206e-03	1.862001e+00	6.098378e+00
9.748882388175201e-03	1.828653e+00	6.204972e+00
9.868882388175196e-03	1.779195e+00	6.338199e+00
9.988882388175191e-03	1.718087e+00	6.486031e+00
1.010888238817519e-02	1.650844e+00	6.635124e+00
1.022888238817518e-02	1.583536e+00	6.772020e+00
1.034888238817518e-02	1.522238e+00	6.884360e+00
1.046888238817517e-02	1.472484e+00	6.962003e+00
1.058888238817517e-02	1.438766e+00	6.997941e+00
1.064904460093023e-02	1.428872e+00	6.999087e+00
1.070164307573984e-02	1.424386e+00	6.990753e+00
1.078700209081974e-02	1.425534e+00	6.959126e+00
1.090700209081974e-02	1.444426e+00	6.879589e+00
1.102700209081973e-02	1.481875e+00	6.765786e+00
1.114700209081973e-02	1.534509e+00	6.627990e+00
1.126700209081972e-02	1.597579e+00	6.478641e+00
1.138700209081972e-02	1.665391e+00	6.331220e+00
1.150700209081972e-02	1.731825e+00	6.199035e+00
1.162700209081971e-02	1.790883e+00	6.094018e+00
1.174700209081971e-02	1.837234e+00	6.025650e+00
1.186354557951844e-02	1.866119e+00	6.000207e+00
1.190824161011225e-02	1.872428e+00	6.001744e+00
1.196660364111191e-02	1.876402e+00	6.013193e+00
1.206115280407831e-02	1.872497e+00	6.053730e+00
1.218115280407830e-02	1.849681e+00	6.140852e+00
1.230115280407830e-02	1.808856e+00	6.260394e+00
1.242115280407829e-02	1.753703e+00	6.401565e+00
1.254115280407829e-02	1.689200e+00	6.551622e+00
1.266115280407829e-02	1.621169e+00	6.697019e+00
1.278115280407828e-02	1.555752e+00	6.824631e+00
1.290115280407828e-02	1.498853e+00	6.922938e+00
1.302115280407827e-02	1.455609e+00	6.983067e+00
1.312316365481693e-02	1.432511e+00	6.999995e+00
1.316181746042815e-02	1.427416e+00	6.997861e+00
1.322241755535203e-02	1.423701e+00	6.985088e+00
1.332051710773631e-02	1.428816e+00	6.940839e+00
1.344051710773631e-02	1.453134e+00	6.850863e+00
1.356051710773630e-02	1.495229e+00	6.729213e+00
1.368051710773630e-02	1.551304e+00	6.586872e+00
1.380051710773629e-02	1.616300e+00	6.436689e+00
1.392051710773629e-02	1.684348e+00	6.292221e+00
1.404051710773628e-02	1.749306e+00	6.166510e+00
1.416051710773628e-02	1.805311e+00	6.070903e+00
1.428051710773627e-02	1.847306e+00	6.014031e+00
1.437682611586326e-02	1.868304e+00	6.000005e+00
1.441547349427136e-02	1.873199e+00	6.002584e+00
1.447835990827445e-02	1.876620e+00	6.016776e+00
1.458007490787262e-02	1.870199e+00	6.064954e+00
1.470007490787262e-02	1.844363e+00	6.157795e+00
1.482007490787261e-02	1.800996e+00	6.281527e+00
1.494007490787261e-02	1.744011e+00	6.424980e+00
1.506007490787260e-02	1.678550e+00	6.575206e+00
1.518007490787260e-02	1.610523e+00	6.718643e+00
1.530007490787259e-02	1.546070e+00	6.842342e+00
1.542007490787259e-02	1.491010e+00	6.935138e+00
1.554007490787258e-02	1.450313e+00	6.988654e+00
1.563053068830825e-02	1.431372e+00	6.999952e+00
1.567150561035695e-02	1.426465e+00	6.996589e+00
1.573815946150581e-02	1.423595e+00	6.979915e+00
1.584580504153313e-02	1.432328e+00	6.924965e+00
1.596580504153312e-02	1.460631e+00	6.827529e+00
1.608580504153312e-02	1.506036e+00	6.700527e+00
1.620580504153311e-02	1.564447e+00	6.555423e+00
1.632580504153311e-02	1.630591e+00	6.405316e+00
1.644580504153310e-02	1.698498e+00	6.263756e+00
1.656580504153310e-02	1.762037e+00	6.143522e+00
1.668580504153309e-02	1.815474e+00	6.055468e+00
1.680580504153309e-02	1.853984e+00	6.007542e+00
1.688656270224904e-02	1.869736e+00	6.000211e+00
1.693132673982621e-02	1.874595e+00	6.005002e+00
1.700409978318015e-02	1.876385e+00	6.026089e+00
1.712129978023164e-02	1.863484e+00	6.092776e+00
1.724129978023163e-02	1.831275e+00	6.197333e+00
1.736129978023163e-02	1.782716e+00	6.329213e+00
1.748129978023162e-02	1.722190e+00	6.476509e+00
1.760129978023162e-02	1.655158e+00	6.625926e+00
1.772129978023161e-02	1.587671e+00	6.763976e+00
1.784129978023161e-02	1.525822e+00	6.878196e+00
1.796129978023160e-02	1.475192e+00	6.958276e+00
1.808129978023160e-02	1.440354e+00	6.996987e+00
1.814620226883604e-02	1.429221e+00	6.999290e+00
1.819701774356582e-02	1.424618e+00	6.991832e+00
1.827952115689570e-02	1.425015e+00	6.962767e+00
1.839952115689569e-02	1.442677e+00	6.885640e+00
1.851952115689569e-02	1.479052e+00	6.773701e+00
1.863952115689568e-02	1.530866e+00	6.637055e+00
1.875952115689568e-02	1.593444e+00	6.488037e+00
1.887952115689567e-02	1.661138e+00	6.340098e+00
1.899952115689567e-02	1.727837e+00	6.206594e+00
1.911952115689566e-02	1.787520e+00	6.099576e+00
1.923952115689566e-02	1.834800e+00	6.028705e+00
1.935952115689565e-02	1.865408e+00	6.000378e+00
1.940674434788935e-02	1.872258e+00	6.001590e+00
1.946416875704148e-02	1.876330e+00	6.012503e+00
1.955722734418197e-02	1.872909e+00	6.051528e+00
1.967722734418197e-02	1.850727e+00	6.137437e+00
1.979722734418196e-02	1.810441e+00	6.256076e+00
1.991722734418196e-02	1.755683e+00	6.396733e+00
2.003722734418195e-02	1.691397e+00	6.546713e+00
2.015722734418195e-02	1.623385e+00	6.692476e+00
2.027722734418194e-02	1.557786e+00	6.820864e+00
2.039722734418194e-02	1.500522e+00	6.920287e+00
2.051722734418193e-02	1.456762e+00	6.981771e+00
2.062161792586836e-02	1.432759e+00	6.999982e+00
2.066124292012836e-02	1.427476e+00	6.997927e+00
2.072148354113501e-02	1.423718e+00	6.985372e+00
2.081901357060750e-02	1.428633e+00	6.941728e+00
2.093901357060750e-02	1.452711e+00	6.852206e+00
2.105901357060749e-02	1.494604e+00	6.730890e+00
2.117901357060749e-02	1.550533e+00	6.588732e+00
2.129901357060748e-02	1.615452e+00	6.438563e+00
2.141901357060748e-02	1.683500e+00	6.293941e+00
2.153901357060747e-02	1.748534e+00	6.167920e+00
2.165901357060747e-02	1.804685e+00	6.071876e+00
2.177901357060746e-02	1.846882e+00	6.014479e+00
2.187624034699359e-02	1.868211e+00	6.000002e+00
2.191451967873195e-02	1.873101e+00	6.002464e+00
2.197680981823896e-02	1.876602e+00	6.016279e+00
2.207758305999438e-02	1.870529e+00	6.063420e+00
2.219758305999438e-02	1.845087e+00	6.155519e+00
2.231758305999437e-02	1.802049e+00	6.278715e+00
2.243758305999437e-02	1.745298e+00	6.421886e+00
2.255758305999436e-02	1.679955e+00	6.572109e+00
2.267758305999436e-02	1.611918e+00	6.715822e+00
2.279758305999435e-02	1.547330e+00	6.840053e+00
2.291758305999435e-02	1.492021e+00	6.933588e+00
2.303758305999434e-02	1.450983e+00	6.987981e+00
2.312956793788122e-02	1.431515e+00	6.999967e+00
2.316993799485192e-02	1.426608e+00	6.996814e+00
2.323561338064117e-02	1.423586e+00	6.980803e+00
2.334172204723725e-02	1.431699e+00	6.927646e+00
2.346172204723725e-02	1.459366e+00	6.831388e+00
2.358172204723724e-02	1.504249e+00	6.705216e+00
2.370172204723724e-02	1.562298e+00	6.560519e+00
2.382172204723723e-02	1.628275e+00	6.410359e+00
2.394172204723723e-02	1.696223e+00	6.268291e+00
2.406172204723722e-02	1.760009e+00	6.147139e+00
2.418172204723722e-02	1.813875e+00	6.057840e+00
2.430172204723721e-02	1.852959e+00	6.008455e+00
2.438500411136536e-02	1.869515e+00	6.000158e+00
2.442878921765709e-02	1.874394e+00	6.004562e+00
2.449998313155298e-02	1.876485e+00	6.024465e+00
2.461472730005958e-02	1.864707e+00	6.088039e+00
2.473472730005957e-02	1.833493e+00	6.190801e+00
2.485472730005957e-02	1.785729e+00	6.321474e+00
2.497472730005956e-02	1.725725e+00	6.468263e+00
2.509472730005957e-02	1.658896e+00	6.617917e+00
2.521472730005958e-02	1.591274e+00	6.756926e+00
2.533472730005959e-02	1.528964e+00	6.872742e+00
2.545472730005960e-02	1.477591e+00	6.954911e+00
2.557472730005961e-02	1.441792e+00	6.996014e+00
2.564373059241792e-02	1.429534e+00	6.999446e+00
2.569299502447489e-02	1.424845e+00	6.992717e+00
2.577300992095294e-02	1.424627e+00	6.965803e+00
2.589300992095295e-02	1.441214e+00	6.890796e+00
2.601300992095296e-02	1.476644e+00	6.780511e+00
2.613300992095297e-02	1.527730e+00	6.644905e+00
2.625300992095297e-02	1.589862e+00	6.496218e+00
2.637300992095298e-02	1.657433e+00	6.347872e+00
2.649300992095299e-02	1.724344e+00	6.213259e+00
2.661300992095300e-02	1.784554e+00	6.104530e+00
2.673300992095301e-02	1.832628e+00	6.031501e+00
2.685300992095302e-02	1.864227e+00	6.000763e+00
2.690431966240550e-02	1.871984e+00	6.001357e+00
2.696022508222984e-02	1.876202e+00	6.011426e+00
2.705086505974061e-02	1.873534e+00	6.048050e+00
2.717086505974062e-02	1.852381e+00	6.131979e+00
2.729086505974063e-02	1.812976e+00	6.249128e+00
2.741086505974064e-02	1.758872e+00	6.388924e+00
2.753086505974064e-02	1.694951e+00	6.538747e+00
2.765086505974065e-02	1.626983e+00	6.685072e+00
2.777086505974066e-02	1.561103e+00	6.814691e+00
2.789086505974067e-02	1.503258e+00	6.915902e+00
2.801086505974068e-02	1.458670e+00	6.979569e+00
2.811909871907714e-02	1.433171e+00	6.999945e+00
2.816030646729745e-02	1.427576e+00	6.998033e+00
2.821996107447466e-02	1.423749e+00	6.985827e+00
2.831656205963937e-02	1.428344e+00	6.943162e+00
2.843656205963938e-02	1.452029e+00	6.854386e+00
2.855656205963938e-02	1.493590e+00	6.733618e+00
2.867656205963939e-02	1.549280e+00	6.591762e+00
2.879656205963940e-02	1.614072e+00	6.441622e+00
2.891656205963941e-02	1.682117e+00	6.296752e+00
2.903656205963942e-02	1.747274e+00	6.170229e+00
2.915656205963943e-02	1.803660e+00	6.073475e+00
2.927656205963944e-02	1.846185e+00	6.015224e+00
2.937528341845383e-02	1.868060e+00	6.000000e+00
2.941296149550526e-02	1.872940e+00	6.002274e+00
2.947427723724247e-02	1.876566e+00	6.015483e+00
2.957350974864656e-02	1.871050e+00	6.060947e+00
2.969350974864657e-02	1.846255e+00	6.151827e+00
2.981350974864658e-02	1.803759e+00	6.274136e+00
2.993350974864659e-02	1.747395e+00	6.416834e+00
3.000000000000000e-02	1.711875e+00	6.500000e+00
